
T03DC 000:393 SEGGER J-Link V4.35b (beta) Log File (0000ms, 0391ms total)
T03DC 000:393 DLL Compiled: Sep  2 2011 18:34:46 (0000ms, 0391ms total)
T03DC 000:393 Logging started @ 2015-11-18 12:50 (0000ms, 0391ms total)
T03DC 000:393 JLINK_SetWarnOutHandler(...) (0000ms, 0391ms total)
T03DC 000:393 JLINK_OpenEx(...)
Firmware: J-Link ARM-OB STM32 compiled Aug 22 2012 19:52:04
Hardware: V7.00
S/N: 20090928
Feature(s): RDI,FlashDL,FlashBP,JFlash,GDBFull  returns O.K. (0144ms, 0391ms total)
T03DC 000:537 JLINK_SetErrorOutHandler(...) (0000ms, 0535ms total)
T03DC 000:537 JLINK_ExecCommand("Device = Cortex-M0", ...)  returns 0x00 (0000ms, 0535ms total)
T03DC 000:537 JLINK_ExecCommand("ProjectFile = "E:\HGroup\Work\Ref\dialog\dialog\DA14580_SDK_3.0.4.0\dk_apps\keil_projects\hps_test\hps_test_fh\JLinkSettings.ini"", ...)  returns 0x00 (0000ms, 0535ms total)
T03DC 000:537 JLINK_ExecCommand("DisableConnectionTimeout", ...)  returns 0x00 (0000ms, 0535ms total)
T03DC 000:537 JLINK_TIF_Select(JLINKARM_TIF_SWD)  returns 0x00 (0006ms, 0535ms total)
T03DC 000:546 JLINK_SetSpeed(2000) (0001ms, 0541ms total)
T03DC 000:549 JLINK_GetHardwareVersion()  returns 0x11170 (0000ms, 0542ms total)
T03DC 000:551 JLINK_GetDLLVersion()  returns 43502 (0000ms, 0542ms total)
T03DC 000:552 JLINK_GetFirmwareString(...) (0000ms, 0542ms total)
T03DC 000:552 JLINK_GetDLLVersion()  returns 43502 (0000ms, 0542ms total)
T03DC 000:552 JLINK_GetCompileDateTime() (0000ms, 0542ms total)
T03DC 000:552 JLINK_GetFirmwareString(...) (0000ms, 0542ms total)
T03DC 000:552 JLINK_GetHardwareVersion()  returns 0x11170 (0000ms, 0542ms total)
T03DC 000:552 JLINK_GetId() >0x108 TIF>Found SWD-DP with ID 0x0BB11477 >0x33 TIF> >0x33 TIF> >0x35 TIF> >0x33 TIF> >0x35 TIF> >0x33 TIF> >0x33 TIF> >0x35 TIF> >0x33 TIF> >0x33 TIF> >0x35 TIF> >0x33 TIF> >0x33 TIF> >0x35 TIF> >0x33 TIF> >0x33 TIF> >0x35 TIF> >0x35 TIF> >0x35 TIF> >0x35 TIF> >0x35 TIF> >0x33 TIF> >0x33 TIF> >0x35 TIF> >0x33 TIF> >0x33 TIF> >0x33 TIF> >0x35 TIF> >0x33 TIF> >0x33 TIF> >0x35 TIF> >0x33 TIF> >0x33 TIF>  FPUnit: 4 code (BP) slots and 0 literal slots >0x35 TIF> >0x33 TIF>
 >0x33 TIF> >0x35 TIF> >0x33 TIF> >0x33 TIF> >0x35 TIF> >0x33 TIF> >0x33 TIF>Found Cortex-M0 r0p0, Little endian. >0x33 TIF>  returns 0x0BB11477 (0047ms, 0542ms total)
T03DC 000:599 JLINK_GetDebugInfo(0x100) -- Value=0xE00FF003  returns 0x00 (0000ms, 0589ms total)
T03DC 000:599 JLINK_ReadMem (0xE00FFFF0, 0x0010 Bytes, ...) -- CPU is running -- CPU_ReadMem(16 bytes @ 0xE00FFFF0) -- Data:  0D 00 00 00 10 00 00 00 05 00 00 00 B1 00 00 00  returns 0x00 (0003ms, 0589ms total)
T03DC 000:602 JLINK_ReadMem (0xE00FFFD0, 0x0020 Bytes, ...) -- CPU is running -- CPU_ReadMem(32 bytes @ 0xE00FFFD0) -- Data:  04 00 00 00 00 00 00 00 00 00 00 00 00 00 00 00 ...  returns 0x00 (0001ms, 0592ms total)
T03DC 000:603 JLINK_ReadMem (0xE00FF000, 0x0018 Bytes, ...) -- CPU is running -- CPU_ReadMem(24 bytes @ 0xE00FF000) -- Data:  03 F0 F0 FF 03 20 F0 FF 03 30 F0 FF 00 00 00 00 ...  returns 0x00 (0001ms, 0593ms total)
T03DC 000:604 JLINK_ReadMemU32(0xE000ED00, 0x0001 Items, ...) -- CPU is running -- CPU_ReadMem(4 bytes @ 0xE000ED00) -- Data:  00 C2 0C 41  returns 0x01 (0001ms, 0594ms total)
T03DC 000:605 JLINK_SetResetType(JLINKARM_RESET_TYPE_NORMAL)  returns JLINKARM_RESET_TYPE_NORMAL (0000ms, 0595ms total)
T03DC 000:605 JLINK_Reset() >0x108 TIF>Found SWD-DP with ID 0x0BB11477 >0x33 TIF> >0x33 TIF> >0x35 TIF> >0x33 TIF> >0x35 TIF> >0x33 TIF> >0x33 TIF> >0x35 TIF> >0x33 TIF> >0x33 TIF> >0x35 TIF> >0x33 TIF> >0x33 TIF> >0x35 TIF> >0x33 TIF> >0x33 TIF> >0x35 TIF> >0x35 TIF> >0x35 TIF> >0x35 TIF> >0x35 TIF> >0x33 TIF> >0x33 TIF> >0x35 TIF> >0x33 TIF> >0x33 TIF> >0x33 TIF> >0x35 TIF> >0x33 TIF> >0x33 TIF> >0x35 TIF> >0x33 TIF> >0x33 TIF>  FPUnit: 4 code (BP) slots and 0 literal slots >0x35 TIF> >0x33 TIF>
 >0x33 TIF> >0x35 TIF> >0x33 TIF> >0x33 TIF> >0x35 TIF> >0x33 TIF> >0x33 TIF>Found Cortex-M0 r0p0, Little endian. -- CPU is running -- CPU_WriteMem(4 bytes @ 0xE000EDF0) -- CPU is running -- CPU_WriteMem(4 bytes @ 0xE000EDFC) >0x35 TIF> -- CPU is running -- CPU_WriteMem(4 bytes @ 0xE000ED0C) -- CPU is running -- CPU_ReadMem(4 bytes @ 0xE000EDF0) -- CPU is running -- CPU_ReadMem(4 bytes @ 0xE000EDF0) -- CPU is running -- CPU_WriteMem(4 bytes @ 0xE000EDF0) -- CPU is running
 -- CPU_WriteMem(4 bytes @ 0xE000EDFC) -- CPU is running -- CPU_ReadMem(4 bytes @ 0xE000EDF0) (0064ms, 0595ms total)
T03DC 000:669 JLINK_ReadReg(R15)  returns 0x000000C0 (0000ms, 0659ms total)
T03DC 000:669 JLINK_ReadReg(XPSR)  returns 0xC1000000 (0000ms, 0659ms total)
T03DC 000:669 JLINK_Halt()  returns 0x00 (0000ms, 0659ms total)
T03DC 000:669 JLINK_IsHalted()  returns TRUE (0000ms, 0659ms total)
T03DC 000:669 JLINK_ReadMemU32(0xE000EDF0, 0x0001 Items, ...) -- CPU_ReadMem(4 bytes @ 0xE000EDF0) -- Data:  03 00 03 00  returns 0x01 (0001ms, 0659ms total)
T03DC 000:670 JLINK_WriteU32(0xE000EDF0, 0xA05F0003) -- CPU_WriteMem(4 bytes @ 0xE000EDF0)  returns 0x00 (0001ms, 0660ms total)
T03DC 000:671 JLINK_WriteU32(0xE000EDFC, 0x01000000) -- CPU_WriteMem(4 bytes @ 0xE000EDFC)  returns 0x00 (0001ms, 0661ms total)
T03DC 000:672 JLINK_ReadMemU32(0xE0002000, 0x0001 Items, ...) -- CPU_ReadMem(4 bytes @ 0xE0002000) -- Data:  40 00 00 00  returns 0x01 (0001ms, 0662ms total)
T03DC 000:673 JLINK_ReadMemU32(0xE0001000, 0x0001 Items, ...) -- CPU_ReadMem(4 bytes @ 0xE0001000) -- Data:  00 00 00 20  returns 0x01 (0001ms, 0663ms total)
T03DC 000:674 JLINK_WriteU32(0xE0001028, 0x00000000) -- CPU_WriteMem(4 bytes @ 0xE0001028)  returns 0x00 (0001ms, 0664ms total)
T03DC 000:675 JLINK_WriteU32(0xE0001038, 0x00000000) -- CPU_WriteMem(4 bytes @ 0xE0001038)  returns 0x00 (0001ms, 0665ms total)
T03DC 000:676 JLINK_GetHWStatus(...)  returns 0x00 (0001ms, 0666ms total)
T03DC 000:677 JLINK_GetNumBPUnits(Type = 0xFFFFFF00)  returns 0x04 (0000ms, 0667ms total)
T03DC 000:677 JLINK_GetNumBPUnits(Type = 0xF0)  returns 0x2000 (0000ms, 0667ms total)
T03DC 000:677 JLINK_GetNumWPUnits()  returns 0x02 (0000ms, 0667ms total)
T03DC 000:677 JLINK_GetSpeed()  returns 0x7D0 (0000ms, 0667ms total)
T03DC 000:677 JLINK_ReadMemU32(0xE000E004, 0x0001 Items, ...) -- CPU_ReadMem(4 bytes @ 0xE000E004) -- Data:  00 00 00 00  returns 0x01 (0002ms, 0667ms total)
T03DC 000:679 JLINK_ReadReg(R15)  returns 0x000000C0 (0000ms, 0669ms total)
T03DC 000:679 JLINK_ReadReg(XPSR)  returns 0xC1000000 (0000ms, 0669ms total)
T03DC 001:184 JLINK_ReadMem (0x00000000, 0x003C Bytes, ...) -- CPU_ReadMem(60 bytes @ 0x00000000) -- Data:  E0 97 00 20 C1 00 00 00 0D 01 00 00 0D 01 00 00 ...  returns 0x00 (0004ms, 0669ms total)
T03DC 001:441 JLINK_SetResetType(JLINKARM_RESET_TYPE_NORMAL)  returns JLINKARM_RESET_TYPE_NORMAL (0000ms, 0673ms total)
T03DC 001:441 JLINK_Reset() >0x108 TIF>Found SWD-DP with ID 0x0BB11477 >0x33 TIF> >0x33 TIF> >0x35 TIF> >0x33 TIF> >0x35 TIF> >0x33 TIF> >0x33 TIF> >0x35 TIF> >0x33 TIF> >0x33 TIF> >0x35 TIF> >0x33 TIF> >0x33 TIF> >0x35 TIF> >0x33 TIF> >0x33 TIF> >0x35 TIF> >0x35 TIF> >0x35 TIF> >0x35 TIF> >0x35 TIF> >0x33 TIF> >0x33 TIF> >0x35 TIF> >0x33 TIF> >0x33 TIF> >0x33 TIF> >0x35 TIF> >0x33 TIF> >0x33 TIF> >0x35 TIF> >0x33 TIF> >0x33 TIF>  FPUnit: 4 code (BP) slots and 0 literal slots >0x35 TIF> >0x33 TIF>
 >0x33 TIF> >0x35 TIF> >0x33 TIF> >0x33 TIF> >0x35 TIF> >0x33 TIF> >0x33 TIF>Found Cortex-M0 r0p0, Little endian. -- CPU_WriteMem(4 bytes @ 0xE000EDF0) -- CPU_WriteMem(4 bytes @ 0xE000EDFC) >0x35 TIF> -- CPU_WriteMem(4 bytes @ 0xE000ED0C) -- CPU_ReadMem(4 bytes @ 0xE000EDF0) -- CPU_ReadMem(4 bytes @ 0xE000EDF0) -- CPU_WriteMem(4 bytes @ 0xE000EDF0) -- CPU_WriteMem(4 bytes @ 0xE000EDFC) -- CPU is running -- CPU_ReadMem(4 bytes @ 0xE000EDF0) (0064ms, 0673ms total)
T03DC 001:505 JLINK_ReadReg(R15)  returns 0x000000C0 (0000ms, 0737ms total)
T03DC 001:505 JLINK_ReadReg(XPSR)  returns 0xC1000000 (0000ms, 0737ms total)
T03DC 001:506 JLINK_ReadMem (0x000000C0, 0x003C Bytes, ...) -- CPU_ReadMem(60 bytes @ 0x000000C0) -- Data:  00 20 01 1C 02 1C 03 1C 04 1C 05 1C 06 1C 07 1C ...  returns 0x00 (0002ms, 0737ms total)
T03DC 001:510 JLINK_ReadReg(R0)  returns 0xFFFFFFFF (0000ms, 0739ms total)
T03DC 001:510 JLINK_ReadReg(R1)  returns 0xFFFFFFFF (0000ms, 0739ms total)
T03DC 001:510 JLINK_ReadReg(R2)  returns 0xFFFFFFFF (0000ms, 0739ms total)
T03DC 001:510 JLINK_ReadReg(R3)  returns 0xFFFFFFFF (0000ms, 0739ms total)
T03DC 001:510 JLINK_ReadReg(R4)  returns 0xFFFFFFFF (0000ms, 0739ms total)
T03DC 001:510 JLINK_ReadReg(R5)  returns 0xFFFFFFFF (0000ms, 0739ms total)
T03DC 001:510 JLINK_ReadReg(R6)  returns 0xFFFFFFFF (0000ms, 0739ms total)
T03DC 001:510 JLINK_ReadReg(R7)  returns 0xFFFFFFFF (0000ms, 0739ms total)
T03DC 001:510 JLINK_ReadReg(R8)  returns 0xFFFFFFFF (0000ms, 0739ms total)
T03DC 001:510 JLINK_ReadReg(R9)  returns 0xFFFFFFFF (0000ms, 0739ms total)
T03DC 001:510 JLINK_ReadReg(R10)  returns 0xFFFFFFFF (0000ms, 0739ms total)
T03DC 001:510 JLINK_ReadReg(R11)  returns 0xFFFFFFFF (0000ms, 0739ms total)
T03DC 001:510 JLINK_ReadReg(R12)  returns 0xFFFFFFFF (0000ms, 0739ms total)
T03DC 001:510 JLINK_ReadReg(R13)  returns 0x200097E0 (0000ms, 0739ms total)
T03DC 001:510 JLINK_ReadReg(R14)  returns 0xFFFFFFFF (0000ms, 0739ms total)
T03DC 001:510 JLINK_ReadReg(R15)  returns 0x000000C0 (0000ms, 0739ms total)
T03DC 001:510 JLINK_ReadReg(XPSR)  returns 0xC1000000 (0000ms, 0739ms total)
T03DC 001:510 JLINK_ReadReg(MSP)  returns 0x200097E0 (0000ms, 0739ms total)
T03DC 001:510 JLINK_ReadReg(PSP)  returns 0xFFFFFFFC (0000ms, 0739ms total)
T03DC 001:510 JLINK_ReadReg(BASEPRI)  returns 0x00000000 (0000ms, 0739ms total)
T03DC 001:510 JLINK_ReadReg(CONTROL)  returns 0x00000000 (0000ms, 0739ms total)
T03DC 001:510 JLINK_ReadReg(FAULTMASK)  returns 0x00000000 (0000ms, 0739ms total)
T03DC 001:510 JLINK_ReadReg(BASEPRI_MAX)  returns 0x00000000 (0000ms, 0739ms total)
T03DC 001:510 JLINK_WriteMem(0x50000012, 0x0004 Bytes, ...) -- Data:  A4 00 00 00 -- CPU_WriteMem(4 bytes @ 0x50000012)  returns 0x04 (0002ms, 0739ms total)
T03DC 001:513 JLINK_WriteMem(0x50003308, 0x0004 Bytes, ...) -- Data:  2E 00 00 00 -- CPU_WriteMem(4 bytes @ 0x50003308)  returns 0x04 (0002ms, 0741ms total)
T03DC 001:587 JLINK_WriteMem(0x20000000, 0x00A0 Bytes, ...) -- Data:  00 98 00 20 C5 04 00 20 CD 04 00 20 E5 04 00 20 ... -- CPU_WriteMem(160 bytes @ 0x20000000)  returns 0xA0 (0004ms, 0743ms total)
T03DC 001:591 JLINK_WriteMem(0x20000160, 0x0160 Bytes, ...) -- Data:  32 00 00 00 73 06 00 20 E1 13 00 20 A1 2A 00 20 ... -- CPU_WriteMem(352 bytes @ 0x20000160)  returns 0x160 (0005ms, 0747ms total)
T03DC 001:596 JLINK_WriteMem(0x200002C0, 0x0064 Bytes, ...) -- Data:  50 46 00 03 00 03 98 3A 64 00 F4 01 B8 0B 00 0C ... -- CPU_WriteMem(100 bytes @ 0x200002C0)  returns 0x64 (0003ms, 0752ms total)
T03DC 001:599 JLINK_WriteMem(0x20000340, 0x00A4 Bytes, ...) -- Data:  FF FF 01 00 00 C2 01 00 00 00 00 00 00 00 00 00 ... -- CPU_WriteMem(164 bytes @ 0x20000340)  returns 0xA4 (0003ms, 0755ms total)
T03DC 001:602 JLINK_WriteMem(0x20000440, 0x1000 Bytes, ...) -- Data:  03 48 85 46 03 F0 C4 FC 00 48 00 47 C7 20 02 00 ... -- CPU_WriteMem(4096 bytes @ 0x20000440)  returns 0x1000 (0048ms, 0758ms total)
T03DC 001:650 JLINK_WriteMem(0x20001440, 0x1000 Bytes, ...) -- Data:  97 48 00 6B 97 49 88 43 95 49 08 63 08 46 40 6B ... -- CPU_WriteMem(4096 bytes @ 0x20001440)  returns 0x1000 (0048ms, 0806ms total)
T03DC 001:698 JLINK_WriteMem(0x20002440, 0x1000 Bytes, ...) -- Data:  20 70 00 27 74 E0 50 48 00 68 00 68 01 21 09 03 ... -- CPU_WriteMem(4096 bytes @ 0x20002440)  returns 0x1000 (0048ms, 0854ms total)
T03DC 001:746 JLINK_WriteMem(0x20003440, 0x1000 Bytes, ...) -- Data:  28 70 01 20 F4 E7 F0 B5 04 46 05 9D 20 68 40 1A ... -- CPU_WriteMem(4096 bytes @ 0x20003440)  returns 0x1000 (0048ms, 0902ms total)
T03DC 001:794 JLINK_WriteMem(0x20004440, 0x031C Bytes, ...) -- Data:  00 25 07 E0 00 21 28 20 60 43 2C 4A 80 18 AA 00 ... -- CPU_WriteMem(796 bytes @ 0x20004440)  returns 0x31C (0011ms, 0950ms total)
T03DC 001:865 JLINK_SetResetType(JLINKARM_RESET_TYPE_NORMAL)  returns JLINKARM_RESET_TYPE_NORMAL (0000ms, 0961ms total)
T03DC 001:865 JLINK_Reset() >0x108 TIF>Found SWD-DP with ID 0x0BB11477 >0x33 TIF> >0x33 TIF> >0x35 TIF> >0x33 TIF> >0x35 TIF> >0x33 TIF> >0x33 TIF> >0x35 TIF> >0x33 TIF> >0x33 TIF> >0x35 TIF> >0x33 TIF> >0x33 TIF> >0x35 TIF> >0x33 TIF> >0x33 TIF> >0x35 TIF> >0x35 TIF> >0x35 TIF> >0x35 TIF> >0x35 TIF> >0x33 TIF> >0x33 TIF> >0x35 TIF> >0x33 TIF> >0x33 TIF> >0x33 TIF> >0x35 TIF> >0x33 TIF> >0x33 TIF> >0x35 TIF> >0x33 TIF> >0x33 TIF>  FPUnit: 4 code (BP) slots and 0 literal slots >0x35 TIF> >0x33 TIF>
 >0x33 TIF> >0x35 TIF> >0x33 TIF> >0x33 TIF> >0x35 TIF> >0x33 TIF> >0x33 TIF>Found Cortex-M0 r0p0, Little endian. -- CPU_ReadMem(4 bytes @ 0x20004440) -- CPU_WriteMem(4 bytes @ 0x20004440) -- CPU_WriteMem(4 bytes @ 0xE000EDF0) -- CPU_WriteMem(4 bytes @ 0xE000EDFC) >0x35 TIF> -- CPU_WriteMem(4 bytes @ 0xE000ED0C) -- CPU_ReadMem(4 bytes @ 0xE000EDF0) -- CPU_ReadMem(4 bytes @ 0xE000EDF0) -- CPU_WriteMem(4 bytes @ 0xE000EDF0) -- CPU_WriteMem(4 bytes @ 0xE000EDFC) -- CPU is running
 -- CPU_ReadMem(4 bytes @ 0xE000EDF0) (0066ms, 0961ms total)
T03DC 001:931 JLINK_ReadReg(R15)  returns 0x000000C0 (0000ms, 1027ms total)
T03DC 001:931 JLINK_ReadReg(XPSR)  returns 0xC1000000 (0000ms, 1027ms total)
T03DC 001:932 JLINK_ReadMem (0x000000C0, 0x003C Bytes, ...) -- CPU_ReadMem(60 bytes @ 0x000000C0) -- Data:  00 20 01 1C 02 1C 03 1C 04 1C 05 1C 06 1C 07 1C ...  returns 0x00 (0002ms, 1027ms total)
T03DC 001:936 JLINK_ReadReg(R0)  returns 0xFFFFFFFF (0000ms, 1029ms total)
T03DC 001:936 JLINK_ReadReg(R1)  returns 0xFFFFFFFF (0000ms, 1029ms total)
T03DC 001:936 JLINK_ReadReg(R2)  returns 0xFFFFFFFF (0000ms, 1029ms total)
T03DC 001:936 JLINK_ReadReg(R3)  returns 0xFFFFFFFF (0000ms, 1029ms total)
T03DC 001:936 JLINK_ReadReg(R4)  returns 0xFFFFFFFF (0000ms, 1029ms total)
T03DC 001:936 JLINK_ReadReg(R5)  returns 0xFFFFFFFF (0000ms, 1029ms total)
T03DC 001:936 JLINK_ReadReg(R6)  returns 0xFFFFFFFF (0000ms, 1029ms total)
T03DC 001:936 JLINK_ReadReg(R7)  returns 0xFFFFFFFF (0000ms, 1029ms total)
T03DC 001:936 JLINK_ReadReg(R8)  returns 0xFFFFFFFF (0000ms, 1029ms total)
T03DC 001:936 JLINK_ReadReg(R9)  returns 0xFFFFFFFF (0000ms, 1029ms total)
T03DC 001:936 JLINK_ReadReg(R10)  returns 0xFFFFFFFF (0000ms, 1029ms total)
T03DC 001:936 JLINK_ReadReg(R11)  returns 0xFFFFFFFF (0000ms, 1029ms total)
T03DC 001:936 JLINK_ReadReg(R12)  returns 0xFFFFFFFF (0000ms, 1029ms total)
T03DC 001:936 JLINK_ReadReg(R13)  returns 0x200097E0 (0000ms, 1029ms total)
T03DC 001:936 JLINK_ReadReg(R14)  returns 0xFFFFFFFF (0000ms, 1029ms total)
T03DC 001:936 JLINK_ReadReg(R15)  returns 0x000000C0 (0000ms, 1029ms total)
T03DC 001:936 JLINK_ReadReg(XPSR)  returns 0xC1000000 (0000ms, 1029ms total)
T03DC 001:936 JLINK_ReadReg(MSP)  returns 0x200097E0 (0000ms, 1029ms total)
T03DC 001:936 JLINK_ReadReg(PSP)  returns 0xFFFFFFFC (0000ms, 1029ms total)
T03DC 001:936 JLINK_ReadReg(BASEPRI)  returns 0x00000000 (0000ms, 1029ms total)
T03DC 001:936 JLINK_ReadReg(CONTROL)  returns 0x00000000 (0000ms, 1029ms total)
T03DC 001:936 JLINK_ReadReg(FAULTMASK)  returns 0x00000000 (0000ms, 1029ms total)
T03DC 001:936 JLINK_ReadReg(BASEPRI_MAX)  returns 0x00000000 (0000ms, 1029ms total)
T03DC 001:936 JLINK_ReadMem (0x20000000, 0x0004 Bytes, ...) -- CPU_ReadMem(4 bytes @ 0x20000000) -- Data:  00 98 00 20  returns 0x00 (0002ms, 1029ms total)
T03DC 001:938 JLINK_WriteReg(R13, 0x20009800)  returns 0x00 (0000ms, 1031ms total)
T03DC 001:940 JLINK_ReadReg(R0)  returns 0xFFFFFFFF (0000ms, 1031ms total)
T03DC 001:940 JLINK_ReadReg(R1)  returns 0xFFFFFFFF (0000ms, 1031ms total)
T03DC 001:940 JLINK_ReadReg(R2)  returns 0xFFFFFFFF (0000ms, 1031ms total)
T03DC 001:940 JLINK_ReadReg(R3)  returns 0xFFFFFFFF (0000ms, 1031ms total)
T03DC 001:940 JLINK_ReadReg(R4)  returns 0xFFFFFFFF (0000ms, 1031ms total)
T03DC 001:940 JLINK_ReadReg(R5)  returns 0xFFFFFFFF (0000ms, 1031ms total)
T03DC 001:940 JLINK_ReadReg(R6)  returns 0xFFFFFFFF (0001ms, 1031ms total)
T03DC 001:941 JLINK_ReadReg(R7)  returns 0xFFFFFFFF (0000ms, 1032ms total)
T03DC 001:941 JLINK_ReadReg(R8)  returns 0xFFFFFFFF (0000ms, 1032ms total)
T03DC 001:941 JLINK_ReadReg(R9)  returns 0xFFFFFFFF (0000ms, 1032ms total)
T03DC 001:941 JLINK_ReadReg(R10)  returns 0xFFFFFFFF (0000ms, 1032ms total)
T03DC 001:941 JLINK_ReadReg(R11)  returns 0xFFFFFFFF (0000ms, 1032ms total)
T03DC 001:941 JLINK_ReadReg(R12)  returns 0xFFFFFFFF (0000ms, 1032ms total)
T03DC 001:941 JLINK_ReadReg(R13)  returns 0x20009800 (0000ms, 1032ms total)
T03DC 001:941 JLINK_ReadReg(R14)  returns 0xFFFFFFFF (0000ms, 1032ms total)
T03DC 001:941 JLINK_ReadReg(R15)  returns 0x000000C0 (0000ms, 1032ms total)
T03DC 001:941 JLINK_ReadReg(XPSR)  returns 0xC1000000 (0000ms, 1032ms total)
T03DC 001:941 JLINK_ReadReg(MSP)  returns 0x20009800 (0000ms, 1032ms total)
T03DC 001:941 JLINK_ReadReg(PSP)  returns 0xFFFFFFFC (0000ms, 1032ms total)
T03DC 001:941 JLINK_ReadReg(BASEPRI)  returns 0x00000000 (0000ms, 1032ms total)
T03DC 001:941 JLINK_ReadReg(CONTROL)  returns 0x00000000 (0000ms, 1032ms total)
T03DC 001:941 JLINK_ReadReg(FAULTMASK)  returns 0x00000000 (0000ms, 1032ms total)
T03DC 001:941 JLINK_ReadReg(BASEPRI_MAX)  returns 0x00000000 (0000ms, 1032ms total)
T03DC 001:941 JLINK_ReadMem (0x20000004, 0x0004 Bytes, ...) -- CPU_ReadMem(4 bytes @ 0x20000004) -- Data:  C5 04 00 20  returns 0x00 (0001ms, 1032ms total)
T03DC 001:942 JLINK_WriteReg(R15, 0x200004C4)  returns 0x00 (0000ms, 1033ms total)
T03DC 001:943 JLINK_ReadMem (0x200004C4, 0x003C Bytes, ...) -- CPU_ReadMem(60 bytes @ 0x200004C4) -- Data:  15 48 80 47 15 48 00 47 04 20 71 46 08 42 03 D0 ...  returns 0x00 (0002ms, 1033ms total)
T03DC 002:025 JLINK_ReadReg(R0)  returns 0xFFFFFFFF (0000ms, 1035ms total)
T03DC 002:025 JLINK_ReadReg(R1)  returns 0xFFFFFFFF (0000ms, 1035ms total)
T03DC 002:025 JLINK_ReadReg(R2)  returns 0xFFFFFFFF (0000ms, 1035ms total)
T03DC 002:025 JLINK_ReadReg(R3)  returns 0xFFFFFFFF (0000ms, 1035ms total)
T03DC 002:025 JLINK_ReadReg(R4)  returns 0xFFFFFFFF (0000ms, 1035ms total)
T03DC 002:025 JLINK_ReadReg(R5)  returns 0xFFFFFFFF (0000ms, 1035ms total)
T03DC 002:025 JLINK_ReadReg(R6)  returns 0xFFFFFFFF (0000ms, 1035ms total)
T03DC 002:025 JLINK_ReadReg(R7)  returns 0xFFFFFFFF (0000ms, 1035ms total)
T03DC 002:025 JLINK_ReadReg(R8)  returns 0xFFFFFFFF (0000ms, 1035ms total)
T03DC 002:025 JLINK_ReadReg(R9)  returns 0xFFFFFFFF (0000ms, 1035ms total)
T03DC 002:025 JLINK_ReadReg(R10)  returns 0xFFFFFFFF (0000ms, 1035ms total)
T03DC 002:025 JLINK_ReadReg(R11)  returns 0xFFFFFFFF (0000ms, 1035ms total)
T03DC 002:025 JLINK_ReadReg(R12)  returns 0xFFFFFFFF (0000ms, 1035ms total)
T03DC 002:025 JLINK_ReadReg(R13)  returns 0x20009800 (0000ms, 1035ms total)
T03DC 002:025 JLINK_ReadReg(R14)  returns 0xFFFFFFFF (0000ms, 1035ms total)
T03DC 002:025 JLINK_ReadReg(R15)  returns 0x200004C4 (0000ms, 1035ms total)
T03DC 002:025 JLINK_ReadReg(XPSR)  returns 0xC1000000 (0000ms, 1035ms total)
T03DC 002:025 JLINK_ReadReg(MSP)  returns 0x20009800 (0000ms, 1035ms total)
T03DC 002:025 JLINK_ReadReg(PSP)  returns 0xFFFFFFFC (0000ms, 1035ms total)
T03DC 002:025 JLINK_ReadReg(BASEPRI)  returns 0x00000000 (0000ms, 1035ms total)
T03DC 002:025 JLINK_ReadReg(CONTROL)  returns 0x00000000 (0000ms, 1035ms total)
T03DC 002:025 JLINK_ReadReg(FAULTMASK)  returns 0x00000000 (0000ms, 1035ms total)
T03DC 002:025 JLINK_ReadReg(BASEPRI_MAX)  returns 0x00000000 (0001ms, 1035ms total)
T0EBC 004:222 JLINK_SetBPEx(Addr = 0x20002C56, Type = 0xF2) -- CPU_ReadMem(4 bytes @ 0x20002C56) -- CPU_WriteMem(4 bytes @ 0x20002C56) -- CPU_ReadMem(4 bytes @ 0x20002C56) -- CPU_WriteMem(4 bytes @ 0x20002C56) -- CPU_ReadMem(2 bytes @ 0x20002C56)  returns 0x00000001 (0006ms, 1036ms total)
T0EBC 004:228 JLINK_Go() -- CPU_WriteMem(2 bytes @ 0x20002C56) -- CPU_WriteMem(4 bytes @ 0xE0002008) -- CPU_WriteMem(4 bytes @ 0xE000200C) -- CPU_WriteMem(4 bytes @ 0xE0002010) -- CPU_WriteMem(4 bytes @ 0xE0002014) (0008ms, 1042ms total)
T0EBC 004:336 JLINK_IsHalted()  returns FALSE (0000ms, 1050ms total)
T0EBC 004:436 JLINK_IsHalted()  returns FALSE (0000ms, 1050ms total)
T0EBC 004:536 JLINK_IsHalted()  returns FALSE (0000ms, 1050ms total)
T0EBC 004:636 JLINK_IsHalted()  returns FALSE (0000ms, 1050ms total)
T0EBC 004:736 JLINK_IsHalted()  returns FALSE (0000ms, 1050ms total)
T0EBC 004:836 JLINK_IsHalted()  returns FALSE (0000ms, 1050ms total)
T0EBC 004:936 JLINK_IsHalted()  returns FALSE (0000ms, 1050ms total)
T0EBC 005:036 JLINK_IsHalted()  returns FALSE (0000ms, 1050ms total)
T0EBC 005:136 JLINK_IsHalted()  returns FALSE (0001ms, 1050ms total)
T0EBC 005:237 JLINK_IsHalted()  returns FALSE (0001ms, 1050ms total)
T0EBC 005:338 JLINK_IsHalted()  returns FALSE (0000ms, 1050ms total)
T0EBC 005:438 JLINK_IsHalted()  returns FALSE (0000ms, 1050ms total)
T0EBC 005:538 JLINK_IsHalted()  returns FALSE (0000ms, 1050ms total)
T0EBC 005:638 JLINK_IsHalted()  returns FALSE (0000ms, 1050ms total)
T0EBC 005:738 JLINK_IsHalted()  returns FALSE (0000ms, 1050ms total)
T0EBC 005:838 JLINK_IsHalted()  returns FALSE (0000ms, 1050ms total)
T0EBC 005:938 JLINK_IsHalted()  returns FALSE (0000ms, 1050ms total)
T0EBC 006:038 JLINK_IsHalted()  returns FALSE (0000ms, 1050ms total)
T0EBC 006:138 JLINK_IsHalted()  returns FALSE (0001ms, 1050ms total)
T0EBC 006:239 JLINK_IsHalted()  returns FALSE (0001ms, 1050ms total)
T0EBC 006:340 JLINK_IsHalted()  returns FALSE (0000ms, 1050ms total)
T0EBC 006:440 JLINK_IsHalted()  returns FALSE (0000ms, 1050ms total)
T0EBC 006:540 JLINK_IsHalted()  returns FALSE (0000ms, 1050ms total)
T0EBC 006:640 JLINK_IsHalted()  returns FALSE (0000ms, 1050ms total)
T0EBC 006:740 JLINK_IsHalted()  returns FALSE (0000ms, 1050ms total)
T0EBC 006:840 JLINK_IsHalted()  returns FALSE (0000ms, 1050ms total)
T0EBC 006:940 JLINK_IsHalted()  returns FALSE (0000ms, 1050ms total)
T0EBC 007:040 JLINK_IsHalted()  returns FALSE (0000ms, 1050ms total)
T0EBC 007:140 JLINK_IsHalted()  returns FALSE (0001ms, 1050ms total)
T0EBC 007:241 JLINK_IsHalted()  returns FALSE (0001ms, 1050ms total)
T0EBC 007:342 JLINK_IsHalted()  returns FALSE (0000ms, 1050ms total)
T0EBC 007:442 JLINK_IsHalted()  returns FALSE (0000ms, 1050ms total)
T0EBC 007:542 JLINK_IsHalted()  returns FALSE (0000ms, 1050ms total)
T0EBC 007:642 JLINK_IsHalted()  returns FALSE (0000ms, 1050ms total)
T0EBC 007:742 JLINK_IsHalted()  returns FALSE (0000ms, 1050ms total)
T0EBC 007:842 JLINK_IsHalted()  returns FALSE (0000ms, 1050ms total)
T0EBC 007:942 JLINK_IsHalted()  returns FALSE (0000ms, 1050ms total)
T0EBC 008:042 JLINK_IsHalted()  returns FALSE (0000ms, 1050ms total)
T0EBC 008:142 JLINK_IsHalted()  returns FALSE (0001ms, 1050ms total)
T0EBC 008:243 JLINK_IsHalted()  returns FALSE (0001ms, 1050ms total)
T0EBC 008:344 JLINK_IsHalted()  returns FALSE (0000ms, 1050ms total)
T0EBC 008:444 JLINK_IsHalted()  returns FALSE (0000ms, 1050ms total)
T0EBC 008:544 JLINK_IsHalted()  returns FALSE (0000ms, 1050ms total)
T0EBC 008:644 JLINK_IsHalted()  returns FALSE (0000ms, 1050ms total)
T0EBC 008:744 JLINK_IsHalted()  returns FALSE (0000ms, 1050ms total)
T0EBC 008:844 JLINK_IsHalted()  returns FALSE (0000ms, 1050ms total)
T0EBC 008:944 JLINK_IsHalted()  returns FALSE (0000ms, 1050ms total)
T0EBC 009:044 JLINK_IsHalted()  returns FALSE (0000ms, 1050ms total)
T0EBC 009:144 JLINK_IsHalted()  returns FALSE (0000ms, 1050ms total)
T0EBC 009:244 JLINK_IsHalted()  returns FALSE (0002ms, 1050ms total)
T0EBC 009:346 JLINK_IsHalted()  returns FALSE (0001ms, 1050ms total)
T0EBC 009:447 JLINK_IsHalted()  returns FALSE (0001ms, 1050ms total)
T0EBC 009:548 JLINK_IsHalted()  returns FALSE (0001ms, 1050ms total)
T0EBC 009:649 JLINK_IsHalted()  returns FALSE (0001ms, 1050ms total)
T0EBC 009:750 JLINK_IsHalted()  returns FALSE (0001ms, 1050ms total)
T0EBC 009:851 JLINK_IsHalted()  returns FALSE (0001ms, 1050ms total)
T0EBC 009:952 JLINK_IsHalted()  returns FALSE (0001ms, 1050ms total)
T0EBC 010:053 JLINK_IsHalted()  returns FALSE (0001ms, 1050ms total)
T0EBC 010:154 JLINK_IsHalted()  returns FALSE (0001ms, 1050ms total)
T0EBC 010:255 JLINK_IsHalted()  returns FALSE (0002ms, 1050ms total)
T0EBC 010:357 JLINK_IsHalted()  returns FALSE (0001ms, 1050ms total)
T0EBC 010:458 JLINK_IsHalted()  returns FALSE (0001ms, 1050ms total)
T0EBC 010:559 JLINK_IsHalted()  returns FALSE (0001ms, 1050ms total)
T0EBC 010:660 JLINK_IsHalted()  returns FALSE (0001ms, 1050ms total)
T0EBC 010:761 JLINK_IsHalted()  returns FALSE (0001ms, 1050ms total)
T0EBC 010:862 JLINK_IsHalted()  returns FALSE (0001ms, 1050ms total)
T0EBC 010:963 JLINK_IsHalted()  returns FALSE (0001ms, 1050ms total)
T0EBC 011:064 JLINK_IsHalted()  returns FALSE (0001ms, 1050ms total)
T0EBC 011:165 JLINK_IsHalted()  returns FALSE (0001ms, 1050ms total)
T0EBC 011:266 JLINK_IsHalted()  returns FALSE (0002ms, 1050ms total)
T0EBC 011:368 JLINK_IsHalted()  returns FALSE (0001ms, 1050ms total)
T0EBC 011:469 JLINK_IsHalted()  returns FALSE (0001ms, 1050ms total)
T0EBC 011:570 JLINK_IsHalted()  returns FALSE (0001ms, 1050ms total)
T0EBC 011:671 JLINK_IsHalted()  returns FALSE (0001ms, 1050ms total)
T0EBC 011:772 JLINK_IsHalted()  returns FALSE (0001ms, 1050ms total)
T0EBC 011:873 JLINK_IsHalted()  returns FALSE (0001ms, 1050ms total)
T0EBC 011:974 JLINK_IsHalted()  returns FALSE (0001ms, 1050ms total)
T0EBC 012:075 JLINK_IsHalted()  returns FALSE (0001ms, 1050ms total)
T0EBC 012:176 JLINK_IsHalted()  returns FALSE (0001ms, 1050ms total)
T0EBC 012:277 JLINK_IsHalted()  returns FALSE (0002ms, 1050ms total)
T0EBC 012:379 JLINK_IsHalted()  returns FALSE (0001ms, 1050ms total)
T0EBC 012:480 JLINK_IsHalted()  returns FALSE (0001ms, 1050ms total)
T0EBC 012:581 JLINK_IsHalted()  returns FALSE (0001ms, 1050ms total)
T0EBC 012:682 JLINK_IsHalted()  returns FALSE (0001ms, 1050ms total)
T0EBC 012:783 JLINK_IsHalted()  returns FALSE (0001ms, 1050ms total)
T0EBC 012:884 JLINK_IsHalted()  returns FALSE (0001ms, 1050ms total)
T0EBC 012:985 JLINK_IsHalted()  returns FALSE (0001ms, 1050ms total)
T0EBC 013:086 JLINK_IsHalted()  returns FALSE (0001ms, 1050ms total)
T0EBC 013:187 JLINK_IsHalted()  returns FALSE (0001ms, 1050ms total)
T0EBC 013:288 JLINK_IsHalted()  returns FALSE (0002ms, 1050ms total)
T0EBC 013:390 JLINK_IsHalted()  returns FALSE (0001ms, 1050ms total)
T0EBC 013:491 JLINK_IsHalted()  returns FALSE (0001ms, 1050ms total)
T0EBC 013:592 JLINK_IsHalted()  returns FALSE (0001ms, 1050ms total)
T0EBC 013:693 JLINK_IsHalted()  returns FALSE (0001ms, 1050ms total)
T0EBC 013:794 JLINK_IsHalted()  returns FALSE (0001ms, 1050ms total)
T0EBC 013:895 JLINK_IsHalted()  returns FALSE (0001ms, 1050ms total)
T0EBC 013:996 JLINK_IsHalted()  returns FALSE (0001ms, 1050ms total)
T0EBC 014:097 JLINK_IsHalted()  returns FALSE (0001ms, 1050ms total)
T0EBC 014:198 JLINK_IsHalted()  returns FALSE (0001ms, 1050ms total)
T0EBC 014:299 JLINK_IsHalted()  returns FALSE (0002ms, 1050ms total)
T0EBC 014:401 JLINK_IsHalted()  returns FALSE (0001ms, 1050ms total)
T0EBC 014:502 JLINK_IsHalted()  returns FALSE (0001ms, 1050ms total)
T0EBC 014:603 JLINK_IsHalted()  returns FALSE (0001ms, 1050ms total)
T0EBC 014:704 JLINK_IsHalted()  returns FALSE (0001ms, 1050ms total)
T0EBC 014:805 JLINK_IsHalted()  returns FALSE (0001ms, 1050ms total)
T0EBC 014:906 JLINK_IsHalted()  returns FALSE (0001ms, 1050ms total)
T0EBC 015:007 JLINK_IsHalted()  returns FALSE (0001ms, 1050ms total)
T0EBC 015:108 JLINK_IsHalted()  returns FALSE (0001ms, 1050ms total)
T0EBC 015:209 JLINK_IsHalted()  returns FALSE (0001ms, 1050ms total)
T0EBC 015:310 JLINK_IsHalted()  returns FALSE (0002ms, 1050ms total)
T0EBC 015:412 JLINK_IsHalted()  returns FALSE (0001ms, 1050ms total)
T0EBC 015:513 JLINK_IsHalted()  returns FALSE (0001ms, 1050ms total)
T0EBC 015:614 JLINK_IsHalted()  returns FALSE (0001ms, 1050ms total)
T0EBC 015:715 JLINK_IsHalted()  returns FALSE (0001ms, 1050ms total)
T0EBC 015:816 JLINK_IsHalted()  returns FALSE (0001ms, 1050ms total)
T0EBC 015:917 JLINK_IsHalted()  returns FALSE (0001ms, 1050ms total)
T0EBC 016:018 JLINK_IsHalted()  returns FALSE (0001ms, 1050ms total)
T0EBC 016:119 JLINK_IsHalted()  returns FALSE (0001ms, 1050ms total)
T0EBC 016:220 JLINK_IsHalted()  returns FALSE (0001ms, 1050ms total)
T0EBC 016:321 JLINK_IsHalted()  returns FALSE (0002ms, 1050ms total)
T0EBC 016:423 JLINK_IsHalted()  returns FALSE (0001ms, 1050ms total)
T0EBC 016:524 JLINK_IsHalted()  returns FALSE (0001ms, 1050ms total)
T0EBC 016:625 JLINK_IsHalted()  returns FALSE (0001ms, 1050ms total)
T0EBC 016:726 JLINK_IsHalted()  returns FALSE (0001ms, 1050ms total)
T0EBC 016:827 JLINK_IsHalted()  returns FALSE (0001ms, 1050ms total)
T0EBC 016:928 JLINK_IsHalted()  returns FALSE (0001ms, 1050ms total)
T0EBC 017:029 JLINK_IsHalted()  returns FALSE (0001ms, 1050ms total)
T0EBC 017:130 JLINK_IsHalted()  returns FALSE (0001ms, 1050ms total)
T0EBC 017:231 JLINK_IsHalted()  returns FALSE (0001ms, 1050ms total)
T0EBC 017:332 JLINK_IsHalted()  returns FALSE (0002ms, 1050ms total)
T0EBC 017:434 JLINK_IsHalted()  returns FALSE (0001ms, 1050ms total)
T0EBC 017:535 JLINK_IsHalted()  returns FALSE (0001ms, 1050ms total)
T0EBC 017:636 JLINK_IsHalted()  returns FALSE (0001ms, 1050ms total)
T0EBC 017:737 JLINK_IsHalted()  returns FALSE (0001ms, 1050ms total)
T0EBC 017:838 JLINK_IsHalted()  returns FALSE (0001ms, 1050ms total)
T0EBC 017:939 JLINK_IsHalted()  returns FALSE (0001ms, 1050ms total)
T0EBC 018:040 JLINK_IsHalted()  returns FALSE (0001ms, 1050ms total)
T0EBC 018:141 JLINK_IsHalted()  returns FALSE (0001ms, 1050ms total)
T0EBC 018:242 JLINK_IsHalted()  returns FALSE (0001ms, 1050ms total)
T0EBC 018:344 JLINK_IsHalted()  returns FALSE (0002ms, 1050ms total)
T0EBC 018:446 JLINK_IsHalted()  returns FALSE (0002ms, 1050ms total)
T0EBC 018:548 JLINK_IsHalted()  returns FALSE (0001ms, 1050ms total)
T0EBC 018:649 JLINK_IsHalted()  returns FALSE (0001ms, 1050ms total)
T0EBC 018:750 JLINK_IsHalted()  returns FALSE (0001ms, 1050ms total)
T0EBC 018:851 JLINK_IsHalted()  returns FALSE (0001ms, 1050ms total)
T0EBC 018:952 JLINK_IsHalted()  returns FALSE (0001ms, 1050ms total)
T0EBC 019:053 JLINK_IsHalted()  returns FALSE (0001ms, 1050ms total)
T0EBC 019:154 JLINK_IsHalted()  returns FALSE (0001ms, 1050ms total)
T0EBC 019:255 JLINK_IsHalted()  returns FALSE (0001ms, 1050ms total)
T0EBC 019:356 JLINK_IsHalted()  returns FALSE (0002ms, 1050ms total)
T0EBC 019:458 JLINK_IsHalted()  returns FALSE (0002ms, 1050ms total)
T0EBC 019:560 JLINK_IsHalted()  returns FALSE (0001ms, 1050ms total)
T0EBC 019:661 JLINK_IsHalted()  returns FALSE (0001ms, 1050ms total)
T0EBC 019:762 JLINK_IsHalted()  returns FALSE (0001ms, 1050ms total)
T0EBC 019:863 JLINK_IsHalted()  returns FALSE (0000ms, 1050ms total)
T0EBC 019:964 JLINK_IsHalted()  returns FALSE (0000ms, 1050ms total)
T0EBC 020:064 JLINK_IsHalted()  returns FALSE (0000ms, 1050ms total)
T0EBC 020:164 JLINK_IsHalted()  returns FALSE (0000ms, 1050ms total)
T0EBC 020:264 JLINK_IsHalted()  returns FALSE (0000ms, 1050ms total)
T0EBC 020:364 JLINK_IsHalted()  returns FALSE (0001ms, 1050ms total)
T0EBC 020:465 JLINK_IsHalted()  returns FALSE (0001ms, 1050ms total)
T0EBC 020:566 JLINK_IsHalted()  returns FALSE (0000ms, 1050ms total)
T0EBC 020:666 JLINK_IsHalted()  returns FALSE (0000ms, 1050ms total)
T0EBC 020:766 JLINK_IsHalted()  returns FALSE (0000ms, 1050ms total)
T0EBC 020:866 JLINK_IsHalted()  returns FALSE (0000ms, 1050ms total)
T0EBC 020:966 JLINK_IsHalted()  returns FALSE (0000ms, 1050ms total)
T0EBC 021:066 JLINK_IsHalted()  returns FALSE (0000ms, 1050ms total)
T0EBC 021:166 JLINK_IsHalted()  returns FALSE (0000ms, 1050ms total)
T0EBC 021:266 JLINK_IsHalted()  returns FALSE (0000ms, 1050ms total)
T0EBC 021:366 JLINK_IsHalted()  returns FALSE (0001ms, 1050ms total)
T0EBC 021:467 JLINK_IsHalted()  returns FALSE (0001ms, 1050ms total)
T0EBC 021:568 JLINK_IsHalted() -- CPU_ReadMem(2 bytes @ 0x20002C56)  returns TRUE (0004ms, 1050ms total)
T0EBC 021:572 JLINK_Halt()  returns 0x00 (0000ms, 1050ms total)
T0EBC 021:572 JLINK_IsHalted()  returns TRUE (0000ms, 1050ms total)
T0EBC 021:572 JLINK_IsHalted()  returns TRUE (0000ms, 1050ms total)
T0EBC 021:572 JLINK_IsHalted()  returns TRUE (0000ms, 1050ms total)
T0EBC 021:573 JLINK_ReadReg(R15)  returns 0x20002C56 (0000ms, 1050ms total)
T0EBC 021:573 JLINK_ReadReg(XPSR)  returns 0x61000000 (0000ms, 1050ms total)
T0EBC 021:573 JLINK_ClrBPEx(BPHandle = 0x00000001)  returns 0x00 (0000ms, 1050ms total)
T0EBC 021:573 JLINK_ReadMemU32(0xE000ED30, 0x0001 Items, ...) -- CPU_ReadMem(4 bytes @ 0xE000ED30) -- Data:  03 00 00 00  returns 0x01 (0000ms, 1050ms total)
T0EBC 021:573 JLINK_ReadMemU32(0xE0001028, 0x0001 Items, ...) -- CPU_ReadMem(4 bytes @ 0xE0001028) -- Data:  00 00 00 00  returns 0x01 (0001ms, 1050ms total)
T0EBC 021:574 JLINK_ReadMemU32(0xE0001038, 0x0001 Items, ...) -- CPU_ReadMem(4 bytes @ 0xE0001038) -- Data:  00 00 00 00  returns 0x01 (0001ms, 1051ms total)
T03DC 021:576 JLINK_ReadReg(R0)  returns 0x00000018 (0000ms, 1052ms total)
T03DC 021:576 JLINK_ReadReg(R1)  returns 0x00000018 (0000ms, 1052ms total)
T03DC 021:576 JLINK_ReadReg(R2)  returns 0x0000003A (0000ms, 1052ms total)
T03DC 021:576 JLINK_ReadReg(R3)  returns 0x0000000C (0000ms, 1052ms total)
T03DC 021:576 JLINK_ReadReg(R4)  returns 0x20008FB4 (0000ms, 1052ms total)
T03DC 021:576 JLINK_ReadReg(R5)  returns 0x20002BFF (0000ms, 1052ms total)
T03DC 021:576 JLINK_ReadReg(R6)  returns 0x0000000C (0000ms, 1052ms total)
T03DC 021:576 JLINK_ReadReg(R7)  returns 0x00000000 (0000ms, 1052ms total)
T03DC 021:576 JLINK_ReadReg(R8)  returns 0xFFFFFFFF (0000ms, 1052ms total)
T03DC 021:576 JLINK_ReadReg(R9)  returns 0xFFFFFFFF (0000ms, 1052ms total)
T03DC 021:576 JLINK_ReadReg(R10)  returns 0xFFFFFFFF (0000ms, 1052ms total)
T03DC 021:576 JLINK_ReadReg(R11)  returns 0xFFFFFFFF (0000ms, 1052ms total)
T03DC 021:576 JLINK_ReadReg(R12)  returns 0x20008BF4 (0000ms, 1052ms total)
T03DC 021:576 JLINK_ReadReg(R13)  returns 0x200097A8 (0000ms, 1052ms total)
T03DC 021:576 JLINK_ReadReg(R14)  returns 0x20001AD3 (0000ms, 1052ms total)
T03DC 021:576 JLINK_ReadReg(R15)  returns 0x20002C56 (0000ms, 1052ms total)
T03DC 021:576 JLINK_ReadReg(XPSR)  returns 0x61000000 (0000ms, 1052ms total)
T03DC 021:576 JLINK_ReadReg(MSP)  returns 0x200097A8 (0000ms, 1052ms total)
T03DC 021:576 JLINK_ReadReg(PSP)  returns 0xFFFFFFFC (0000ms, 1052ms total)
T03DC 021:576 JLINK_ReadReg(BASEPRI)  returns 0x00000000 (0000ms, 1052ms total)
T03DC 021:576 JLINK_ReadReg(CONTROL)  returns 0x00000000 (0000ms, 1052ms total)
T03DC 021:576 JLINK_ReadReg(FAULTMASK)  returns 0x00000000 (0000ms, 1052ms total)
T03DC 021:576 JLINK_ReadReg(BASEPRI_MAX)  returns 0x00000000 (0000ms, 1052ms total)
T03DC 021:576 JLINK_ReadMem (0x200097CC, 0x0004 Bytes, ...) -- CPU_ReadMem(64 bytes @ 0x200097C0) -- Updating DA cache (64 bytes @ 0x200097C0) -- Read from DA cache (4 bytes @ 0x200097CC) -- Data:  D3 1A 00 20  returns 0x00 (0001ms, 1052ms total)
T03DC 021:577 JLINK_ReadMem (0x200097BC, 0x0004 Bytes, ...) -- CPU_ReadMem(64 bytes @ 0x20009780) -- Updating DA cache (64 bytes @ 0x20009780) -- Read from DA cache (4 bytes @ 0x200097BC) -- Data:  A4 8F 00 20  returns 0x00 (0002ms, 1053ms total)
T03DC 021:579 JLINK_ReadMem (0x200097C0, 0x0004 Bytes, ...) -- Read from DA cache (4 bytes @ 0x200097C0) -- Data:  FF 2B 00 20  returns 0x00 (0000ms, 1055ms total)
T03DC 021:579 JLINK_ReadMem (0x200097C4, 0x0004 Bytes, ...) -- Read from DA cache (4 bytes @ 0x200097C4) -- Data:  40 47 00 20  returns 0x00 (0000ms, 1055ms total)
T03DC 021:579 JLINK_ReadMem (0x200097C8, 0x0004 Bytes, ...) -- Read from DA cache (4 bytes @ 0x200097C8) -- Data:  FF FF FF FF  returns 0x00 (0001ms, 1055ms total)
T03DC 021:580 JLINK_ReadMem (0x200097DC, 0x0004 Bytes, ...) -- Read from DA cache (4 bytes @ 0x200097DC) -- Data:  81 21 03 00  returns 0x00 (0000ms, 1056ms total)
T03DC 021:580 JLINK_ReadMem (0x200097D0, 0x0004 Bytes, ...) -- Read from DA cache (4 bytes @ 0x200097D0) -- Data:  E4 05 08 00  returns 0x00 (0000ms, 1056ms total)
T03DC 021:580 JLINK_ReadMem (0x200097D4, 0x0004 Bytes, ...) -- Read from DA cache (4 bytes @ 0x200097D4) -- Data:  01 00 00 00  returns 0x00 (0000ms, 1056ms total)
T03DC 021:580 JLINK_ReadMem (0x200097D8, 0x0004 Bytes, ...) -- Read from DA cache (4 bytes @ 0x200097D8) -- Data:  40 47 00 20  returns 0x00 (0000ms, 1056ms total)
T03DC 021:580 JLINK_ReadMem (0x200097B4, 0x0002 Bytes, ...) -- Read from DA cache (2 bytes @ 0x200097B4) -- Data:  00 00  returns 0x00 (0000ms, 1056ms total)
T03DC 021:580 JLINK_ReadMem (0x200097B0, 0x0001 Bytes, ...) -- Read from DA cache (1 bytes @ 0x200097B0) -- Data:  80  returns 0x00 (0000ms, 1056ms total)
T03DC 021:580 JLINK_WriteReg(R0, 0x00000018)  returns 0x00 (0000ms, 1056ms total)
T03DC 021:580 JLINK_WriteReg(R1, 0x00000018)  returns 0x00 (0000ms, 1056ms total)
T03DC 021:580 JLINK_WriteReg(R2, 0x0000003A)  returns 0x00 (0000ms, 1056ms total)
T03DC 021:580 JLINK_WriteReg(R3, 0x0000000C)  returns 0x00 (0000ms, 1056ms total)
T03DC 021:580 JLINK_WriteReg(R4, 0x20008FB4)  returns 0x00 (0000ms, 1056ms total)
T03DC 021:580 JLINK_WriteReg(R5, 0x20002BFF)  returns 0x00 (0000ms, 1056ms total)
T03DC 021:580 JLINK_WriteReg(R6, 0x0000000C)  returns 0x00 (0000ms, 1056ms total)
T03DC 021:580 JLINK_WriteReg(R7, 0x00000000)  returns 0x00 (0000ms, 1056ms total)
T03DC 021:580 JLINK_WriteReg(R8, 0xFFFFFFFF)  returns 0x00 (0000ms, 1056ms total)
T03DC 021:580 JLINK_WriteReg(R9, 0xFFFFFFFF)  returns 0x00 (0000ms, 1056ms total)
T03DC 021:580 JLINK_WriteReg(R10, 0xFFFFFFFF)  returns 0x00 (0000ms, 1056ms total)
T03DC 021:580 JLINK_WriteReg(R11, 0xFFFFFFFF)  returns 0x00 (0000ms, 1056ms total)
T03DC 021:580 JLINK_WriteReg(R12, 0x20008BF4)  returns 0x00 (0000ms, 1056ms total)
T03DC 021:580 JLINK_WriteReg(R13, 0x200097A8)  returns 0x00 (0000ms, 1056ms total)
T03DC 021:580 JLINK_WriteReg(R14, 0x20001AD3)  returns 0x00 (0000ms, 1056ms total)
T03DC 021:580 JLINK_WriteReg(R15, 0x20002C56)  returns 0x00 (0000ms, 1056ms total)
T03DC 021:580 JLINK_WriteReg(XPSR, 0x61000000)  returns 0x00 (0000ms, 1056ms total)
T03DC 021:580 JLINK_WriteReg(MSP, 0x200097A8)  returns 0x00 (0000ms, 1056ms total)
T03DC 021:580 JLINK_WriteReg(PSP, 0xFFFFFFFC)  returns 0x00 (0000ms, 1056ms total)
T03DC 021:580 JLINK_WriteReg(BASEPRI, 0x00000000)  returns 0x00 (0000ms, 1056ms total)
T03DC 021:580 JLINK_WriteReg(CONTROL, 0x00000000)  returns 0x00 (0000ms, 1056ms total)
T03DC 021:580 JLINK_WriteReg(FAULTMASK, 0x00000000)  returns 0x00 (0000ms, 1056ms total)
T03DC 021:580 JLINK_WriteReg(BASEPRI_MAX, 0x00000000)  returns 0x00 (0000ms, 1056ms total)
T03DC 021:580 JLINK_ReadMem (0x00000000, 0x0004 Bytes, ...) -- CPU_ReadMem(4 bytes @ 0x00000000) -- Data:  E0 97 00 20  returns 0x00 (0001ms, 1056ms total)
T03DC 021:582 JLINK_ReadReg(R0)  returns 0x00000018 (0000ms, 1057ms total)
T03DC 021:582 JLINK_ReadReg(R1)  returns 0x00000018 (0000ms, 1057ms total)
T03DC 021:582 JLINK_ReadReg(R2)  returns 0x0000003A (0000ms, 1057ms total)
T03DC 021:582 JLINK_ReadReg(R3)  returns 0x0000000C (0000ms, 1057ms total)
T03DC 021:582 JLINK_ReadReg(R4)  returns 0x20008FB4 (0000ms, 1057ms total)
T03DC 021:582 JLINK_ReadReg(R5)  returns 0x20002BFF (0000ms, 1057ms total)
T03DC 021:582 JLINK_ReadReg(R6)  returns 0x0000000C (0000ms, 1057ms total)
T03DC 021:582 JLINK_ReadReg(R7)  returns 0x00000000 (0000ms, 1057ms total)
T03DC 021:582 JLINK_ReadReg(R8)  returns 0xFFFFFFFF (0000ms, 1057ms total)
T03DC 021:582 JLINK_ReadReg(R9)  returns 0xFFFFFFFF (0000ms, 1057ms total)
T03DC 021:582 JLINK_ReadReg(R10)  returns 0xFFFFFFFF (0000ms, 1057ms total)
T03DC 021:582 JLINK_ReadReg(R11)  returns 0xFFFFFFFF (0000ms, 1057ms total)
T03DC 021:582 JLINK_ReadReg(R12)  returns 0x20008BF4 (0000ms, 1057ms total)
T03DC 021:582 JLINK_ReadReg(R13)  returns 0x200097A8 (0000ms, 1057ms total)
T03DC 021:582 JLINK_ReadReg(R14)  returns 0x20001AD3 (0000ms, 1057ms total)
T03DC 021:582 JLINK_ReadReg(R15)  returns 0x20002C56 (0000ms, 1057ms total)
T03DC 021:582 JLINK_ReadReg(XPSR)  returns 0x61000000 (0000ms, 1057ms total)
T03DC 021:582 JLINK_ReadReg(MSP)  returns 0x200097A8 (0000ms, 1057ms total)
T03DC 021:582 JLINK_ReadReg(PSP)  returns 0xFFFFFFFC (0000ms, 1057ms total)
T03DC 021:582 JLINK_ReadReg(BASEPRI)  returns 0x00000000 (0000ms, 1057ms total)
T03DC 021:582 JLINK_ReadReg(CONTROL)  returns 0x00000000 (0000ms, 1057ms total)
T03DC 021:582 JLINK_ReadReg(FAULTMASK)  returns 0x00000000 (0000ms, 1057ms total)
T03DC 021:582 JLINK_ReadReg(BASEPRI_MAX)  returns 0x00000000 (0000ms, 1057ms total)
T03DC 021:582 JLINK_WriteReg(R0, 0x00000018)  returns 0x00 (0000ms, 1057ms total)
T03DC 021:582 JLINK_WriteReg(R1, 0x00000018)  returns 0x00 (0000ms, 1057ms total)
T03DC 021:582 JLINK_WriteReg(R2, 0x0000003A)  returns 0x00 (0000ms, 1057ms total)
T03DC 021:582 JLINK_WriteReg(R3, 0x0000000C)  returns 0x00 (0000ms, 1057ms total)
T03DC 021:582 JLINK_WriteReg(R4, 0x20008FB4)  returns 0x00 (0000ms, 1057ms total)
T03DC 021:582 JLINK_WriteReg(R5, 0x20002BFF)  returns 0x00 (0000ms, 1057ms total)
T03DC 021:582 JLINK_WriteReg(R6, 0x0000000C)  returns 0x00 (0000ms, 1057ms total)
T03DC 021:582 JLINK_WriteReg(R7, 0x00000000)  returns 0x00 (0000ms, 1057ms total)
T03DC 021:582 JLINK_WriteReg(R8, 0xFFFFFFFF)  returns 0x00 (0000ms, 1057ms total)
T03DC 021:582 JLINK_WriteReg(R9, 0xFFFFFFFF)  returns 0x00 (0000ms, 1057ms total)
T03DC 021:582 JLINK_WriteReg(R10, 0xFFFFFFFF)  returns 0x00 (0000ms, 1057ms total)
T03DC 021:582 JLINK_WriteReg(R11, 0xFFFFFFFF)  returns 0x00 (0000ms, 1057ms total)
T03DC 021:582 JLINK_WriteReg(R12, 0x20008BF4)  returns 0x00 (0000ms, 1057ms total)
T03DC 021:582 JLINK_WriteReg(R13, 0x200097A8)  returns 0x00 (0000ms, 1057ms total)
T03DC 021:582 JLINK_WriteReg(R14, 0x20001AD3)  returns 0x00 (0000ms, 1057ms total)
T03DC 021:582 JLINK_WriteReg(R15, 0x20002C56)  returns 0x00 (0000ms, 1057ms total)
T03DC 021:582 JLINK_WriteReg(XPSR, 0x61000000)  returns 0x00 (0000ms, 1057ms total)
T03DC 021:582 JLINK_WriteReg(MSP, 0x200097A8)  returns 0x00 (0000ms, 1057ms total)
T03DC 021:582 JLINK_WriteReg(PSP, 0xFFFFFFFC)  returns 0x00 (0000ms, 1057ms total)
T03DC 021:582 JLINK_WriteReg(BASEPRI, 0x00000000)  returns 0x00 (0000ms, 1057ms total)
T03DC 021:582 JLINK_WriteReg(CONTROL, 0x00000000)  returns 0x00 (0000ms, 1057ms total)
T03DC 021:582 JLINK_WriteReg(FAULTMASK, 0x00000000)  returns 0x00 (0001ms, 1057ms total)
T03DC 021:583 JLINK_WriteReg(BASEPRI_MAX, 0x00000000)  returns 0x00 (0000ms, 1058ms total)
T03DC 021:583 JLINK_ReadReg(R0)  returns 0x00000018 (0000ms, 1058ms total)
T03DC 021:583 JLINK_ReadReg(R1)  returns 0x00000018 (0000ms, 1058ms total)
T03DC 021:583 JLINK_ReadReg(R2)  returns 0x0000003A (0000ms, 1058ms total)
T03DC 021:583 JLINK_ReadReg(R3)  returns 0x0000000C (0000ms, 1058ms total)
T03DC 021:583 JLINK_ReadReg(R4)  returns 0x20008FB4 (0000ms, 1058ms total)
T03DC 021:583 JLINK_ReadReg(R5)  returns 0x20002BFF (0000ms, 1058ms total)
T03DC 021:583 JLINK_ReadReg(R6)  returns 0x0000000C (0000ms, 1058ms total)
T03DC 021:583 JLINK_ReadReg(R7)  returns 0x00000000 (0000ms, 1058ms total)
T03DC 021:583 JLINK_ReadReg(R8)  returns 0xFFFFFFFF (0000ms, 1058ms total)
T03DC 021:583 JLINK_ReadReg(R9)  returns 0xFFFFFFFF (0000ms, 1058ms total)
T03DC 021:583 JLINK_ReadReg(R10)  returns 0xFFFFFFFF (0000ms, 1058ms total)
T03DC 021:583 JLINK_ReadReg(R11)  returns 0xFFFFFFFF (0000ms, 1058ms total)
T03DC 021:583 JLINK_ReadReg(R12)  returns 0x20008BF4 (0000ms, 1058ms total)
T03DC 021:583 JLINK_ReadReg(R13)  returns 0x200097A8 (0000ms, 1058ms total)
T03DC 021:583 JLINK_ReadReg(R14)  returns 0x20001AD3 (0000ms, 1058ms total)
T03DC 021:583 JLINK_ReadReg(R15)  returns 0x20002C56 (0000ms, 1058ms total)
T03DC 021:583 JLINK_ReadReg(XPSR)  returns 0x61000000 (0000ms, 1058ms total)
T03DC 021:583 JLINK_ReadReg(MSP)  returns 0x200097A8 (0000ms, 1058ms total)
T03DC 021:583 JLINK_ReadReg(PSP)  returns 0xFFFFFFFC (0000ms, 1058ms total)
T03DC 021:583 JLINK_ReadReg(BASEPRI)  returns 0x00000000 (0000ms, 1058ms total)
T03DC 021:583 JLINK_ReadReg(CONTROL)  returns 0x00000000 (0000ms, 1058ms total)
T03DC 021:583 JLINK_ReadReg(FAULTMASK)  returns 0x00000000 (0000ms, 1058ms total)
T03DC 021:583 JLINK_ReadReg(BASEPRI_MAX)  returns 0x00000000 (0000ms, 1058ms total)
T0EBC 026:222 JLINK_ReadMem (0x20002C56, 0x0002 Bytes, ...) -- Merging zombie BP[0]: 0x2704 @ 0x20002C56 -- Merging zombie BP[0]: 0x2704 @ 0x20002C56 -- Data:  04 27  returns 0x00 (0001ms, 1058ms total)
T0EBC 026:223 JLINK_ReadMem (0x20002C58, 0x003C Bytes, ...) -- CPU_ReadMem(128 bytes @ 0x20002C40) -- Updating DA cache (128 bytes @ 0x20002C40) -- Read from DA cache (60 bytes @ 0x20002C58) -- Data:  52 E0 21 88 B8 48 C0 88 0B 30 81 42 4C D1 21 89 ...  returns 0x00 (0002ms, 1059ms total)
T0EBC 026:225 JLINK_Step() -- Merging zombie BP[0]: 0x2704 @ 0x20002C56 -- Merging zombie BP[0]: 0x2704 @ 0x20002C56 -- Simulated  returns 0x00 (0001ms, 1061ms total)
T0EBC 026:226 JLINK_ReadReg(R15)  returns 0x20002C58 (0000ms, 1062ms total)
T0EBC 026:226 JLINK_ReadReg(XPSR)  returns 0x21000000 (0000ms, 1062ms total)
T0EBC 026:226 JLINK_Step() -- Read from DA cache (2 bytes @ 0x20002C58) -- Not simulated -- CPU_WriteMem(4 bytes @ 0xE0002008) -- CPU_WriteMem(4 bytes @ 0xE000200C) -- CPU_WriteMem(4 bytes @ 0xE0002010) -- CPU_WriteMem(4 bytes @ 0xE0002014)  returns 0x00 (0010ms, 1062ms total)
T0EBC 026:236 JLINK_ReadReg(R15)  returns 0x20002D00 (0000ms, 1072ms total)
T0EBC 026:236 JLINK_ReadReg(XPSR)  returns 0x21000000 (0000ms, 1072ms total)
T03DC 026:236 JLINK_ReadReg(R0)  returns 0x00000018 (0000ms, 1072ms total)
T03DC 026:236 JLINK_ReadReg(R1)  returns 0x00000018 (0000ms, 1072ms total)
T03DC 026:236 JLINK_ReadReg(R2)  returns 0x0000003A (0000ms, 1072ms total)
T03DC 026:236 JLINK_ReadReg(R3)  returns 0x0000000C (0000ms, 1072ms total)
T03DC 026:236 JLINK_ReadReg(R4)  returns 0x20008FB4 (0000ms, 1072ms total)
T03DC 026:236 JLINK_ReadReg(R5)  returns 0x20002BFF (0000ms, 1072ms total)
T03DC 026:236 JLINK_ReadReg(R6)  returns 0x0000000C (0001ms, 1072ms total)
T03DC 026:237 JLINK_ReadReg(R7)  returns 0x00000004 (0000ms, 1073ms total)
T03DC 026:237 JLINK_ReadReg(R8)  returns 0xFFFFFFFF (0000ms, 1073ms total)
T03DC 026:237 JLINK_ReadReg(R9)  returns 0xFFFFFFFF (0000ms, 1073ms total)
T03DC 026:237 JLINK_ReadReg(R10)  returns 0xFFFFFFFF (0000ms, 1073ms total)
T03DC 026:237 JLINK_ReadReg(R11)  returns 0xFFFFFFFF (0000ms, 1073ms total)
T03DC 026:237 JLINK_ReadReg(R12)  returns 0x20008BF4 (0000ms, 1073ms total)
T03DC 026:237 JLINK_ReadReg(R13)  returns 0x200097A8 (0000ms, 1073ms total)
T03DC 026:237 JLINK_ReadReg(R14)  returns 0x20001AD3 (0000ms, 1073ms total)
T03DC 026:237 JLINK_ReadReg(R15)  returns 0x20002D00 (0000ms, 1073ms total)
T03DC 026:237 JLINK_ReadReg(XPSR)  returns 0x21000000 (0000ms, 1073ms total)
T03DC 026:237 JLINK_ReadReg(MSP)  returns 0x200097A8 (0000ms, 1073ms total)
T03DC 026:237 JLINK_ReadReg(PSP)  returns 0xFFFFFFFC (0000ms, 1073ms total)
T03DC 026:237 JLINK_ReadReg(BASEPRI)  returns 0x00000000 (0000ms, 1073ms total)
T03DC 026:237 JLINK_ReadReg(CONTROL)  returns 0x00000000 (0000ms, 1073ms total)
T03DC 026:237 JLINK_ReadReg(FAULTMASK)  returns 0x00000000 (0000ms, 1073ms total)
T03DC 026:237 JLINK_ReadReg(BASEPRI_MAX)  returns 0x00000000 (0000ms, 1073ms total)
T03DC 026:237 JLINK_ReadMem (0x200097CC, 0x0004 Bytes, ...) -- CPU_ReadMem(64 bytes @ 0x200097C0) -- Updating DA cache (64 bytes @ 0x200097C0) -- Read from DA cache (4 bytes @ 0x200097CC) -- Data:  D3 1A 00 20  returns 0x00 (0001ms, 1073ms total)
T03DC 026:238 JLINK_ReadMem (0x200097BC, 0x0004 Bytes, ...) -- CPU_ReadMem(64 bytes @ 0x20009780) -- Updating DA cache (64 bytes @ 0x20009780) -- Read from DA cache (4 bytes @ 0x200097BC) -- Data:  A4 8F 00 20  returns 0x00 (0002ms, 1074ms total)
T03DC 026:240 JLINK_ReadMem (0x200097C0, 0x0004 Bytes, ...) -- Read from DA cache (4 bytes @ 0x200097C0) -- Data:  FF 2B 00 20  returns 0x00 (0000ms, 1076ms total)
T03DC 026:240 JLINK_ReadMem (0x200097C4, 0x0004 Bytes, ...) -- Read from DA cache (4 bytes @ 0x200097C4) -- Data:  40 47 00 20  returns 0x00 (0000ms, 1076ms total)
T03DC 026:240 JLINK_ReadMem (0x200097C8, 0x0004 Bytes, ...) -- Read from DA cache (4 bytes @ 0x200097C8) -- Data:  FF FF FF FF  returns 0x00 (0000ms, 1076ms total)
T03DC 026:240 JLINK_ReadMem (0x200097DC, 0x0004 Bytes, ...) -- Read from DA cache (4 bytes @ 0x200097DC) -- Data:  81 21 03 00  returns 0x00 (0000ms, 1076ms total)
T03DC 026:240 JLINK_ReadMem (0x200097D0, 0x0004 Bytes, ...) -- Read from DA cache (4 bytes @ 0x200097D0) -- Data:  E4 05 08 00  returns 0x00 (0000ms, 1076ms total)
T03DC 026:240 JLINK_ReadMem (0x200097D4, 0x0004 Bytes, ...) -- Read from DA cache (4 bytes @ 0x200097D4) -- Data:  01 00 00 00  returns 0x00 (0000ms, 1076ms total)
T03DC 026:240 JLINK_ReadMem (0x200097D8, 0x0004 Bytes, ...) -- Read from DA cache (4 bytes @ 0x200097D8) -- Data:  40 47 00 20  returns 0x00 (0000ms, 1076ms total)
T03DC 026:240 JLINK_ReadMem (0x200097B4, 0x0002 Bytes, ...) -- Read from DA cache (2 bytes @ 0x200097B4) -- Data:  00 00  returns 0x00 (0000ms, 1076ms total)
T03DC 026:240 JLINK_ReadMem (0x200097B0, 0x0001 Bytes, ...) -- Read from DA cache (1 bytes @ 0x200097B0) -- Data:  80  returns 0x00 (0000ms, 1076ms total)
T03DC 026:240 JLINK_WriteReg(R0, 0x00000018)  returns 0x00 (0000ms, 1076ms total)
T03DC 026:240 JLINK_WriteReg(R1, 0x00000018)  returns 0x00 (0000ms, 1076ms total)
T03DC 026:240 JLINK_WriteReg(R2, 0x0000003A)  returns 0x00 (0001ms, 1076ms total)
T03DC 026:241 JLINK_WriteReg(R3, 0x0000000C)  returns 0x00 (0000ms, 1077ms total)
T03DC 026:241 JLINK_WriteReg(R4, 0x20008FB4)  returns 0x00 (0000ms, 1077ms total)
T03DC 026:241 JLINK_WriteReg(R5, 0x20002BFF)  returns 0x00 (0000ms, 1077ms total)
T03DC 026:241 JLINK_WriteReg(R6, 0x0000000C)  returns 0x00 (0000ms, 1077ms total)
T03DC 026:241 JLINK_WriteReg(R7, 0x00000004)  returns 0x00 (0000ms, 1077ms total)
T03DC 026:241 JLINK_WriteReg(R8, 0xFFFFFFFF)  returns 0x00 (0000ms, 1077ms total)
T03DC 026:241 JLINK_WriteReg(R9, 0xFFFFFFFF)  returns 0x00 (0000ms, 1077ms total)
T03DC 026:241 JLINK_WriteReg(R10, 0xFFFFFFFF)  returns 0x00 (0000ms, 1077ms total)
T03DC 026:241 JLINK_WriteReg(R11, 0xFFFFFFFF)  returns 0x00 (0000ms, 1077ms total)
